Circuit: ECSE 334 - Assignment 2

WARNING: Node 1 is floating.

Direct Newton iteration for .op point succeeded.
Semiconductor Device Operating Points:
                        --- MOSFET Transistors ---
Name:          m2          m1
Model:        qmos        qmos
Id:         -3.98e-12   -5.00e-04
Vgs:         4.66e-01   -4.53e+00
Vds:        -2.03e+00   -3.36e-02
Vbs:        -1.01e-01   -1.01e-01
Vth:        -8.00e-01   -8.00e-01
Vdsat:      -0.00e+00   -3.73e+00
Gm:          0.00e+00    1.35e-04
Gds:         0.00e+00    1.48e-02
Gmb:         0.00e+00    0.00e+00
Cbd:         0.00e+00    0.00e+00
Cbs:         0.00e+00    0.00e+00
Cgsov:       0.00e+00    0.00e+00
Cgdov:       0.00e+00    0.00e+00
Cgbov:       0.00e+00    0.00e+00
Cgs:         2.30e-12    1.73e-12
Cgd:         0.00e+00    1.72e-12
Cgb:         0.00e+00    0.00e+00



Date: Thu Oct 12 16:00:27 2017
Total elapsed time: 1.496 seconds.

tnom = 27
temp = 27
method = trap
totiter = 43
traniter = 0
tranpoints = 0
accept = 0
rejected = 0
matrix size = 10
fillins = 0
solver = Normal
Matrix Compiler1: 488 bytes object code size
Matrix Compiler2:      62 opcodes
