Circuit: Assignment 1

Direct Newton iteration for .op point succeeded.
Semiconductor Device Operating Points:
                        --- Bipolar Transistors ---
Name:       q2          q1
Model:     qpnp        qpnp
Ib:      -8.57e-05   -8.57e-05
Ic:      -4.09e-03   -4.08e-03
Vbe:     -7.53e-01   -7.53e-01
Vbc:      1.58e-01    0.00e+00
Vce:     -9.12e-01   -7.53e-01
BetaDC:   4.77e+01    4.76e+01
Gm:       1.51e-01    1.50e-01
Rpi:      3.02e+02    3.02e+02
Rx:       1.00e+01    1.00e+01
Ro:       1.23e+04    1.23e+04
Cbe:      4.13e-11    4.13e-11
Cbc:      8.76e-12    9.80e-12
Cjs:      0.00e+00    0.00e+00
BetaAC:   4.55e+01    4.53e+01
Cbx:      0.00e+00    0.00e+00
Ft:       4.79e+08    4.68e+08



Date: Sun Sep 24 14:52:35 2017
Total elapsed time: 0.009 seconds.

tnom = 27
temp = 27
method = trap
totiter = 5
traniter = 0
tranpoints = 0
accept = 0
rejected = 0
matrix size = 8
fillins = 0
solver = Normal
Matrix Compiler1: 514 bytes object code size
Matrix Compiler2: 710 bytes object code size
