Circuit: ECSE 334 - Assignment 1

Direct Newton iteration for .op point succeeded.
Semiconductor Device Operating Points:
                        --- Bipolar Transistors ---
Name:       q2          q1
Model:     qpnp        qpnp
Ib:      -1.94e-05   -1.94e-05
Ic:      -1.13e-03   -9.57e-04
Vbe:     -7.14e-01   -7.14e-01
Vbc:      9.29e+00    0.00e+00
Vce:     -1.00e+01   -7.14e-01
BetaDC:   5.86e+01    4.94e+01
Gm:       4.34e-02    3.66e-02
Rpi:      1.33e+03    1.33e+03
Rx:       1.00e+01    1.00e+01
Ro:       5.22e+04    5.22e+04
Cbe:      2.16e-11    2.04e-11
Cbc:      2.17e-12    9.74e-12
Cjs:      0.00e+00    0.00e+00
BetaAC:   5.79e+01    4.88e+01
Cbx:      0.00e+00    0.00e+00
Ft:       2.90e+08    1.93e+08



Date: Mon Sep 25 20:34:52 2017
Total elapsed time: 1.904 seconds.

tnom = 27
temp = 27
method = trap
totiter = 6
traniter = 0
tranpoints = 0
accept = 0
rejected = 0
matrix size = 9
fillins = 0
solver = Normal
Matrix Compiler1: 528 bytes object code size
Matrix Compiler2: 763 bytes object code size
