Circuit: ECSE 334 - Assignment 1

Direct Newton iteration for .op point succeeded.
Semiconductor Device Operating Points:
                        --- Bipolar Transistors ---
Name:       q2          q1
Model:     qpnp        qpnp
Ib:      -2.09e-05   -2.09e-05
Ic:      -1.07e-03   -1.03e-03
Vbe:     -7.16e-01   -7.16e-01
Vbc:      2.14e+00    0.00e+00
Vce:     -2.85e+00   -7.16e-01
BetaDC:   5.15e+01    4.94e+01
Gm:       4.10e-02    3.93e-02
Rpi:      1.24e+03    1.24e+03
Rx:       1.00e+01    1.00e+01
Ro:       4.85e+04    4.85e+04
Cbe:      2.12e-11    2.09e-11
Cbc:      4.47e-12    9.75e-12
Cjs:      0.00e+00    0.00e+00
BetaAC:   5.08e+01    4.87e+01
Cbx:      0.00e+00    0.00e+00
Ft:       2.54e+08    2.04e+08



Date: Tue Sep 26 14:46:40 2017
Total elapsed time: 1.278 seconds.

tnom = 27
temp = 27
method = trap
totiter = 6
traniter = 0
tranpoints = 0
accept = 0
rejected = 0
matrix size = 8
fillins = 0
solver = Normal
Matrix Compiler1: 514 bytes object code size
Matrix Compiler2: 710 bytes object code size
