Circuit: Assignment 4 - Class B Output Stage

Direct Newton iteration for .op point succeeded.
Semiconductor Device Operating Points:
                        --- MOSFET Transistors ---
Name:          m2          m1
Model:        qmos2       qmos1
Id:         -1.04e-11    1.90e-02
Vgs:         4.81e+00    4.81e+00
Vds:        -5.19e+00    4.81e+00
Vbs:         0.00e+00    0.00e+00
Vth:        -5.00e-01    5.00e-01
Vdsat:      -0.00e+00    4.31e+00
Gm:          0.00e+00    8.83e-03
Gds:         0.00e+00    9.75e-05
Gmb:         0.00e+00    0.00e+00
Cbd:         0.00e+00    0.00e+00
Cbs:         0.00e+00    0.00e+00
Cgsov:       0.00e+00    0.00e+00
Cgdov:       0.00e+00    0.00e+00
Cgbov:       0.00e+00    0.00e+00
Cgs:         0.00e+00    2.30e-12
Cgd:         0.00e+00    0.00e+00
Cgb:         3.45e-12    0.00e+00



Date: Sun Nov 26 16:34:38 2017
Total elapsed time: 10.078 seconds.

tnom = 27
temp = 27
method = trap
totiter = 9
traniter = 0
tranpoints = 0
accept = 0
rejected = 0
matrix size = 7
fillins = 0
solver = Normal
Matrix Compiler1: 250 bytes object code size
Matrix Compiler2: 483 bytes object code size
