Circuit: ECSE 334 - Assignment 3

Instance "m5": Length shorter than recommended for a level 2 MOSFET.
Instance "m2": Length shorter than recommended for a level 2 MOSFET.
Instance "m1": Length shorter than recommended for a level 2 MOSFET.
Instance "m4": Length shorter than recommended for a level 2 MOSFET.
Instance "m3": Length shorter than recommended for a level 2 MOSFET.
Direct Newton iteration for .op point succeeded.
Semiconductor Device Operating Points:
                        --- MOSFET Transistors ---
Name:          m5          m2          m1          m4          m3
Model:        qmos1       qmos1       qmos1       qmos4       qmos3
Id:          8.00e-04    1.00e-04    9.98e-05   -3.00e-04   -9.98e-05
Vgs:         1.47e+00    9.67e-01    9.73e-01   -9.82e-01   -9.82e-01
Vds:         2.51e+00    3.47e+00    2.49e+00   -1.03e+00   -9.82e-01
Vbs:         0.00e+00    0.00e+00    0.00e+00    0.00e+00    0.00e+00
Vth:         7.00e-01    7.00e-01    7.00e-01   -7.00e-01   -7.00e-01
Vdsat:       7.73e-01    2.67e-01    2.73e-01   -2.82e-01   -2.82e-01
Gm:          2.07e-03    7.50e-04    7.31e-04    2.12e-03    7.07e-04
Gds:         3.72e-05    4.88e-06    4.64e-06    1.31e-05    4.33e-06
Gmb:         0.00e+00    0.00e+00    0.00e+00    0.00e+00    0.00e+00
Cbd:         0.00e+00    0.00e+00    0.00e+00    0.00e+00    0.00e+00
Cbs:         0.00e+00    0.00e+00    0.00e+00    0.00e+00    0.00e+00
Cgsov:       0.00e+00    0.00e+00    0.00e+00    0.00e+00    0.00e+00
Cgdov:       0.00e+00    0.00e+00    0.00e+00    0.00e+00    0.00e+00
Cgbov:       0.00e+00    0.00e+00    0.00e+00    0.00e+00    0.00e+00
Cgs:         4.60e-15    4.60e-15    4.60e-15    2.76e-14    9.21e-15
Cgd:         0.00e+00    0.00e+00    0.00e+00    0.00e+00    0.00e+00
Cgb:         0.00e+00    0.00e+00    0.00e+00    0.00e+00    0.00e+00



Date: Mon Nov 13 21:52:17 2017
Total elapsed time: 0.021 seconds.

tnom = 27
temp = 27
method = trap
totiter = 25
traniter = 0
tranpoints = 0
accept = 0
rejected = 0
matrix size = 10
fillins = 2
solver = Normal
Matrix Compiler1:      30 opcodes
Matrix Compiler2: 802 bytes object code size
