Circuit: ECSE 334 - Assignment 3

WARNING: Node P is floating.
WARNING: Node N is floating.

Direct Newton iteration failed to find .op point.  (Use ".option noopiter" to skip.)
Starting Gmin stepping
Gmin = 10
Gmin = 1.07374
Gmin = 0.115292
Gmin = 0.0123794
Gmin = 0.00132923
Gmin = 0.000142725
Gmin = 1.5325e-005
Gmin = 1.6455e-006
Gmin = 1.76685e-007
Gmin = 1.89714e-008
Gmin = 2.03704e-009
Gmin = 2.18725e-010
Gmin = 2.34854e-011
Gmin = 2.52173e-012
Gmin = 2.70769e-013
Gmin = 0
Gmin stepping succeeded in finding the operating point.

Semiconductor Device Operating Points:
                        --- MOSFET Transistors ---
Name:          m5          m2          m1          m3          m4
Model:       qmos125     qmos125     qmos125      qmos3       qmos4
Id:          8.00e-04    1.00e-04    9.98e-05   -9.98e-05   -3.00e-04
Vgs:         1.47e+00    9.67e-01    9.73e-01   -9.82e-01   -9.82e-01
Vds:         2.51e+00    3.47e+00    2.49e+00   -9.82e-01   -1.03e+00
Vbs:        -8.08e-01    1.59e-01    1.59e-01   -1.48e-01   -1.48e-01
Vth:         7.00e-01    7.00e-01    7.00e-01   -7.00e-01   -7.00e-01
Vdsat:       7.73e-01    2.67e-01    2.73e-01   -2.82e-01   -2.82e-01
Gm:          2.07e-03    7.50e-04    7.31e-04    7.07e-04    2.12e-03
Gds:         3.73e-05    4.89e-06    4.64e-06    4.34e-06    1.31e-05
Gmb:         0.00e+00    0.00e+00    0.00e+00    0.00e+00    0.00e+00
Cbd:         0.00e+00    0.00e+00    0.00e+00    0.00e+00    0.00e+00
Cbs:         0.00e+00    0.00e+00    0.00e+00    0.00e+00    0.00e+00
Cgsov:       0.00e+00    0.00e+00    0.00e+00    0.00e+00    0.00e+00
Cgdov:       0.00e+00    0.00e+00    0.00e+00    0.00e+00    0.00e+00
Cgbov:       0.00e+00    0.00e+00    0.00e+00    0.00e+00    0.00e+00
Cgs:         4.60e-03    4.60e-03    4.60e-03    9.21e-03    2.76e-02
Cgd:         0.00e+00    0.00e+00    0.00e+00    0.00e+00    0.00e+00
Cgb:         0.00e+00    0.00e+00    0.00e+00    0.00e+00    0.00e+00



Date: Mon Nov 06 17:17:07 2017
Total elapsed time: 0.032 seconds.

tnom = 27
temp = 27
method = trap
totiter = 435
traniter = 0
tranpoints = 0
accept = 0
rejected = 0
matrix size = 12
fillins = 2
solver = Normal
Matrix Compiler1: 1.05 KB object code size
Matrix Compiler2:      90 opcodes  0.3/[0.3]/0.4

